#!/usr/bin/tclsh

# Init
exec i2ctransfer -y 2 w5@0x42 0x43 0x04 0x00 0x00 0x00 >@ stdout
exec i2ctransfer -y 2 w2@0x42 0x43 0x04 >@ stdout
#exec sleep 1
exec i2ctransfer -y 2 w5@0x42 0x43 0x05 0x00 0x01 0x01 >@ stdout
exec i2ctransfer -y 2 w3@0x42 0x43 0x05 0x04 >@ stdout
exec i2ctransfer -y 2 r7@0x42 >@ stdout
#exec sleep 1

# Stream off
exec i2ctransfer -y 2 w5@0x42 0x43 0x08 0x00 0x00 0x00 >@ stdout
exec i2ctransfer -y 2 w2@0x42 0x43 0x08 >@ stdout
#exec sleep 1
exec i2ctransfer -y 2 w5@0x42 0x43 0x05 0x00 0x01 0x01 >@ stdout
exec i2ctransfer -y 2 w3@0x42 0x43 0x05 0x08 >@ stdout
exec i2ctransfer -y 2 r7@0x42 >@ stdout
#exec sleep 1

# Stream config (1920x1080x30fps)
exec i2ctransfer -y 2 w5@0x42 0x43 0x09 0x00 0x0E 0x0E >@ stdout
exec i2ctransfer -y 2 w17@0x42 0x43 0x09 0x00 0x06 0x59 0x56 0x59 0x55 0x07 0x80 0x04 0x38 0x00 0x1E 0x00 0x01 0xA1 >@ stdout
#exec sleep 1
exec i2ctransfer -y 2 w5@0x42 0x43 0x05 0x00 0x01 0x01 >@ stdout
exec i2ctransfer -y 2 w3@0x42 0x43 0x05 0x09 >@ stdout
exec i2ctransfer -y 2 r7@0x42 >@ stdout
#exec sleep 1

# Stream on
exec i2ctransfer -y 2 w5@0x42 0x43 0x07 0x00 0x00 0x00 >@ stdout
exec i2ctransfer -y 2 w2@0x42 0x43 0x07 >@ stdout
#exec sleep 1
exec i2ctransfer -y 2 w5@0x42 0x43 0x05 0x00 0x01 0x01 >@ stdout
exec i2ctransfer -y 2 w3@0x42 0x43 0x05 0x08 >@ stdout
exec i2ctransfer -y 2 r7@0x42 >@ stdout
#exec sleep 1
